Element, I1_1, Ang1_1, I1_2, Ang1_2, I1_3, Ang1_3, I1_4, Ang1_4, Iresid1, AngResid1, I2_1, Ang2_1, I2_2, Ang2_2, I2_3, Ang2_3, I2_4, Ang2_4, Iresid2, AngResid2, I3_1, Ang3_1, I3_2, Ang3_2, I3_3, Ang3_3, I3_4, Ang3_4, Iresid3, AngResid3
Vsource.SOURCE,    10.2034,   166.32,     9.6294,    50.12,    10.4916,   -69.11,          0,     0.00, 8.19807E-13,   123.69,    10.2034,   -13.68,     9.6294,  -129.88,    10.4916,   110.89,          0,     0.00, 8.19807E-13,   -56.31,          0,     0.00,          0,     0.00,          0,     0.00,          0,     0.00,          0,     0.00
Transformer.SUB_XFMR,    10.2034,   -13.68,     9.6294,  -129.88,    10.4916,   110.89,          0,     0.00, 1.27106E-13,    26.57,    55.4139,   138.94,    46.7261,    19.39,    49.3897,  -100.96,    7.87486,   -25.74, 2.51602E-7,   142.95,          0,     0.00,          0,     0.00,          0,     0.00,          0,     0.00,          0,     0.00
Transformer.SUB_REGULATOR_A,    55.4139,   -41.06,    55.4138,   138.94,          0,     0.00,          0,     0.00, 0.000218549,  -120.59,    54.0622,   138.94,    54.0623,   -41.06,          0,     0.00,          0,     0.00, 0.000224011,  -120.59,          0,     0.00,          0,     0.00,          0,     0.00,          0,     0.00,          0,     0.00
Transformer.SUB_REGULATOR_B,    46.7261,  -160.61,    46.7261,    19.39,          0,     0.00,          0,     0.00, 0.00021869,   119.49,    45.5864,    19.39,    45.5864,  -160.61,          0,     0.00,          0,     0.00, 0.000224157,   119.49,          0,     0.00,          0,     0.00,          0,     0.00,          0,     0.00,          0,     0.00
Transformer.SUB_REGULATOR_C,    49.3897,    79.04,    49.3896,  -100.96,          0,     0.00,          0,     0.00, 0.000218682,    -0.54,     48.185,  -100.96,     48.185,    79.04,          0,     0.00,          0,     0.00, 0.000224147,    -0.54,          0,     0.00,          0,     0.00,          0,     0.00,          0,     0.00,          0,     0.00
Transformer.T_1003,   0.649597,   -44.91,   0.649182,  -164.83,   0.649195,    75.14, 0.00106723,    89.00, 2.92177E-9,   144.18,    43.0982,   135.09,    43.0707,    15.17,    43.0715,  -104.86,  0.0708068,   -91.00, 1.93931E-7,   143.71,          0,     0.00,          0,     0.00,          0,     0.00,          0,     0.00,          0,     0.00
Transformer.T_1004,    0.31507,   -56.48,   0.314873,  -176.40,   0.314876,    63.57, 0.00051867,    77.09,  1.9425E-9,   144.47,    20.9036,   123.52,    20.8905,     3.60,    20.8907,  -116.43,  0.0344118,  -102.91, 1.28644E-7,   144.26,          0,     0.00,          0,     0.00,          0,     0.00,          0,     0.00,          0,     0.00
Transformer.T_1005,    0.21729,   -52.20,   0.217155,  -172.12,   0.217156,    67.85, 0.000358599,    81.11, 1.93924E-9,   144.64,    14.4163,   127.80,    14.4074,     7.88,    14.4074,  -112.15,  0.0237917,   -98.89, 1.28519E-7,   144.50,          0,     0.00,          0,     0.00,          0,     0.00,          0,     0.00,          0,     0.00
Transformer.T_1006,   0.394647,   -25.17,   0.394649,   154.83, 1.39179E-6,   -30.60,          0,     0.00, 1.38748E-6,   149.46,    26.1833,   154.83,    26.1833,   -25.17, 0.00009234,   149.40,          0,     0.00, 0.00009234,   149.40,          0,     0.00,          0,     0.00,          0,     0.00,          0,     0.00,          0,     0.00
Transformer.T_1007,   0.331161,   -26.62,   0.331162,   153.38, 4.65751E-7,   -30.78,          0,     0.00, 4.62491E-7,   149.46,    21.9713,   153.38,    21.9713,   -26.62, 0.0000309008,   149.22,          0,     0.00, 0.0000309008,   149.22,          0,     0.00,          0,     0.00,          0,     0.00,          0,     0.00,          0,     0.00
Transformer.T_1008,   0.642026,   -55.20,   0.641633,  -175.11,   0.641626,    64.85, 0.00107187,    77.74, 1.15604E-9,   145.32,    42.5959,   124.80,    42.5699,     4.89,    42.5694,  -115.15,  0.0711147,  -102.26, 7.61119E-8,   144.63,          0,     0.00,          0,     0.00,          0,     0.00,          0,     0.00,          0,     0.00
Transformer.T_1009,   0.758668,   -52.30,   0.758211,  -172.21,   0.758203,    67.75,  0.0012607,    80.60, 1.91777E-9,   145.81,    50.3346,   127.70,    50.3043,     7.79,    50.3037,  -112.25,  0.0836426,   -99.40, 1.26716E-7,   145.30,          0,     0.00,          0,     0.00,          0,     0.00,          0,     0.00,          0,     0.00
Transformer.T_1010,   0.316391,   -52.24,   0.316201,  -172.15,   0.316198,    67.82, 0.000524977,    80.65, 1.15067E-9,   145.81,    20.9913,   127.76,    20.9787,     7.85,    20.9785,  -112.18,  0.0348302,   -99.35,  7.6072E-8,   145.46,          0,     0.00,          0,     0.00,          0,     0.00,          0,     0.00,          0,     0.00
Transformer.T_1011,   0.405867,   -48.90,   0.405867,   131.10,          0,     0.00,          0,     0.00, 1.59959E-6,  -120.61,    13.4742,   131.10,    13.4743,   -48.90,          0,     0.00,          0,     0.00, 0.00010596,  -120.71,    13.4743,   131.10,    13.4742,   -48.90,          0,     0.00,          0,     0.00, 0.000211919,    59.29
Transformer.T_1012,   0.404065,  -170.53,   0.404064,     9.47,          0,     0.00,          0,     0.00, 2.40081E-6,   119.48,    13.4144,     9.47,    13.4144,  -170.53,          0,     0.00,          0,     0.00, 0.000159179,   119.42,    13.4145,     9.47,    13.4144,  -170.53,          0,     0.00,          0,     0.00, 0.000318357,   -60.58
Transformer.T_1013,  0.0657583,   -46.89,  0.0657195,  -166.80,  0.0657193,    73.16, 0.000108385,    85.89, 1.15764E-9,   146.48,    4.36277,   133.11,     4.3602,    13.20,    4.36019,  -106.83, 0.00719094,   -94.11, 7.67573E-8,   146.41,          0,     0.00,          0,     0.00,          0,     0.00,          0,     0.00,          0,     0.00
Transformer.T_1014,  0.0612684,  -173.61,  0.0612678,     6.39,          0,     0.00,          0,     0.00, 1.60054E-6,   119.48,    2.03395,     6.39,    2.03399,  -173.61,          0,     0.00,          0,     0.00, 0.000106232,   119.47,    2.03404,     6.39,    2.03395,  -173.61,          0,     0.00,          0,     0.00, 0.000212464,   -60.53
Transformer.T_1015,  0.0995997,  -162.03,  0.0995994,    17.97,          0,     0.00,          0,     0.00, 1.60054E-6,   119.48,    3.30654,    17.97,    3.30656,  -162.03,          0,     0.00,          0,     0.00, 0.000106216,   119.45,    3.30659,    17.97,    3.30654,  -162.03,          0,     0.00,          0,     0.00, 0.000212432,   -60.55
Transformer.T_1016,   0.421918,    63.56,   0.421916,  -116.44,          0,     0.00,          0,     0.00, 3.20104E-6,    -0.55,     14.007,  -116.44,     14.007,    63.56,          0,     0.00,          0,     0.00, 0.000212293,    -0.60,    14.0071,  -116.44,     14.007,    63.56,          0,     0.00,          0,     0.00, 0.000424585,   179.40
Transformer.T_1017,   0.273339,    73.14,   0.273339,  -106.86,          0,     0.00,          0,     0.00, 2.40078E-6,    -0.55,    9.07443,  -106.86,    9.07448,    73.14,          0,     0.00,          0,     0.00, 0.000159258,    -0.60,    9.07452,  -106.86,    9.07443,    73.14,          0,     0.00,          0,     0.00, 0.000318516,   179.40
Transformer.T_2002,    1.22333,   -50.75,    1.22265,  -170.67,    1.22256,    69.30, 0.00195712,    82.40, 6.73374E-9,   145.01,    81.1627,   129.25,    81.1176,     9.33,    81.1122,  -110.70,   0.129847,   -97.60, 4.47079E-7,   144.61,          0,     0.00,          0,     0.00,          0,     0.00,          0,     0.00,          0,     0.00
Transformer.T_2003,   0.607489,   -44.83,   0.607173,  -164.75,   0.607069,    75.22, 0.000962369,    86.67, 1.44289E-9,   139.57,    40.3045,   135.17,    40.2836,    15.25,    40.2766,  -104.78,  0.0638494,   -93.33, 9.55251E-8,   139.02,          0,     0.00,          0,     0.00,          0,     0.00,          0,     0.00,          0,     0.00
Transformer.T_2005,   0.397333,   -52.27,   0.397139,  -172.20,   0.397035,    67.77, 0.000624369,    77.75, 7.48719E-10,   133.19,    26.3614,   127.73,    26.3486,     7.80,    26.3417,  -112.23,  0.0414245,  -102.25, 4.94515E-8,   132.50,          0,     0.00,          0,     0.00,          0,     0.00,          0,     0.00,          0,     0.00
Transformer.T_2008,   0.280198,   -55.18,   0.280198,   124.82,          0,     0.00,          0,     0.00, 1.59897E-6,  -120.63,    9.30215,   124.82,    9.30219,   -55.18,          0,     0.00,          0,     0.00, 0.000105982,  -120.68,    9.30224,   124.82,    9.30215,   -55.18,          0,     0.00,          0,     0.00, 0.000211965,    59.32
Transformer.T_2009,    0.16515,   -52.23,   0.165149,   127.77,          0,     0.00,          0,     0.00, 1.59897E-6,  -120.63,    5.48269,   127.77,    5.48273,   -52.23,          0,     0.00,          0,     0.00, 0.000106062,  -120.66,    5.48277,   127.77,    5.48269,   -52.23,          0,     0.00,          0,     0.00, 0.000212124,    59.34
Transformer.T_2010,   0.101235,   -52.21,   0.101187,  -172.15,   0.101158,    67.83, 0.000157952,    77.29, 7.14329E-10,   131.16,     6.7165,   127.79,    6.71334,     7.85,    6.71141,  -112.17,  0.0104795,  -102.71, 4.73391E-8,   130.98,          0,     0.00,          0,     0.00,          0,     0.00,          0,     0.00,          0,     0.00
Transformer.T_2011,   0.232781,   -48.88,   0.232674,  -168.82,   0.232601,    71.16, 0.000362549,    80.23, 6.82548E-10,   129.33,    15.4441,   131.12,     15.437,    11.18,    15.4322,  -108.84,  0.0240537,   -99.77, 4.51924E-8,   128.88,          0,     0.00,          0,     0.00,          0,     0.00,          0,     0.00,          0,     0.00
Transformer.T_2014,   0.361555,  -166.89,   0.361554,    13.11,          0,     0.00,          0,     0.00, 2.39916E-6,   119.43,    12.0031,    13.11,    12.0031,  -166.89,          0,     0.00,          0,     0.00, 0.000159103,   119.37,    12.0032,    13.11,    12.0031,  -166.89,          0,     0.00,          0,     0.00, 0.000318205,   -60.63
Transformer.T_2015,   0.199624,  -173.69,   0.199623,     6.31,          0,     0.00,          0,     0.00, 1.59944E-6,   119.43,    6.62719,     6.31,    6.62723,  -173.69,          0,     0.00,          0,     0.00, 0.000106069,   119.39,    6.62727,     6.31,    6.62719,  -173.69,          0,     0.00,          0,     0.00, 0.000212137,   -60.61
Transformer.T_2016,   0.206239,  -162.11,   0.206239,    17.89,          0,     0.00,          0,     0.00, 1.59943E-6,   119.43,    6.84683,    17.89,    6.84685,  -162.11,          0,     0.00,          0,     0.00, 0.000106083,   119.37,    6.84688,    17.89,    6.84683,  -162.11,          0,     0.00,          0,     0.00, 0.000212166,   -60.63
Transformer.T_2017,   0.704158,  -176.55,   0.704157,     3.45,          0,     0.00,          0,     0.00, 1.59941E-6,   119.43,    23.3771,     3.45,    23.3771,  -176.55,          0,     0.00,          0,     0.00, 0.000105725,   119.29,    23.3772,     3.45,    23.3771,  -176.55,          0,     0.00,          0,     0.00, 0.000211451,   -60.71
Transformer.T_2018,   0.360956,  -166.93,   0.360956,    13.07,          0,     0.00,          0,     0.00,  1.5994E-6,   119.43,    11.9832,    13.08,    11.9833,  -166.93,          0,     0.00,          0,     0.00, 0.00010598,   119.34,    11.9833,    13.07,    11.9832,  -166.92,          0,     0.00,          0,     0.00, 0.00021196,   -60.66
Transformer.T_2020,   0.400833,  -168.87,   0.400832,    11.13,          0,     0.00,          0,     0.00, 1.59943E-6,   119.43,    13.3071,    11.13,    13.3071,  -168.87,          0,     0.00,          0,     0.00, 0.000105952,   119.33,    13.3071,    11.13,    13.3071,  -168.87,          0,     0.00,          0,     0.00, 0.000211903,   -60.67
Transformer.T_2022,   0.369771,    64.83,   0.369771,  -115.17,          0,     0.00,          0,     0.00, 1.59999E-6,    -0.60,    12.2759,  -115.17,    12.2759,    64.83,          0,     0.00,          0,     0.00, 0.000105991,    -0.67,    12.2759,  -115.17,    12.2759,    64.83,          0,     0.00,          0,     0.00, 0.000211982,   179.33
Transformer.T_2023,  0.0915014,    77.90,  0.0915012,  -102.10,          0,     0.00,          0,     0.00, 9.59989E-7,    -0.60,    3.03771,  -102.10,    3.03772,    77.90,          0,     0.00,          0,     0.00, 0.0000636837,    -0.62,    3.03773,  -102.10,    3.03771,    77.90,          0,     0.00,          0,     0.00, 0.000127367,   179.38
Transformer.T_2024,    0.31736,    81.20,    0.31736,   -98.80,          0,     0.00,          0,     0.00, 1.59996E-6,    -0.60,    10.5359,   -98.80,     10.536,    81.20,          0,     0.00,          0,     0.00, 0.000106067,    -0.69,     10.536,   -98.80,    10.5359,    81.20,          0,     0.00,          0,     0.00, 0.000212133,   179.31
Transformer.T_2025,   0.358195,    67.76,   0.358195,  -112.24,          0,     0.00,          0,     0.00, 1.59995E-6,    -0.60,    11.8916,  -112.24,    11.8916,    67.76,          0,     0.00,          0,     0.00, 0.000106004,    -0.68,    11.8916,  -112.24,    11.8916,    67.76,          0,     0.00,          0,     0.00, 0.000212007,   179.32
Transformer.T_2028, 6.39456E-6,  -120.64, 4.79592E-6,    59.36,          0,     0.00,          0,     0.00, 1.59864E-6,  -120.64, 2.31877E-12,    78.69, 0.000106146,  -120.64,          0,     0.00,          0,     0.00, 0.000106146,  -120.64, 0.000212292,    59.36,          0,     0.00,          0,     0.00,          0,     0.00, 0.000212292,    59.36
Transformer.T_2029,   0.396211,   -42.22,   0.396033,  -162.16,   0.395887,    77.82, 0.000615486,    86.04, 1.04673E-9,   121.90,     26.287,   137.78,    26.2752,    17.84,    26.2655,  -102.18,  0.0408351,   -93.96, 6.94953E-8,   121.41,          0,     0.00,          0,     0.00,          0,     0.00,          0,     0.00,          0,     0.00
Transformer.T_2030,   0.243724,   -56.51,   0.243613,  -176.45,   0.243523,    63.53, 0.000378393,    71.85,  1.0511E-9,   121.49,      16.17,   123.49,    16.1627,     3.55,    16.1568,  -116.47,  0.0251049,  -108.15, 6.96753E-8,   121.19,          0,     0.00,          0,     0.00,          0,     0.00,          0,     0.00,          0,     0.00
Transformer.T_2031,   0.450024,   -56.57,   0.450023,   123.43,          0,     0.00,          0,     0.00, 1.59862E-6,  -120.64,    14.9401,   123.43,    14.9402,   -56.57,          0,     0.00,          0,     0.00, 0.000105843,  -120.73,    14.9402,   123.43,    14.9401,   -56.57,          0,     0.00,          0,     0.00, 0.000211686,    59.27
Transformer.T_2032,   0.100181,   -55.15,   0.100137,  -175.09,     0.1001,    64.89, 0.000155021,    72.87, 6.17948E-10,   122.14,    6.64659,   124.85,    6.64368,     4.91,    6.64119,  -115.11,  0.0102851,  -107.13, 4.09578E-8,   121.93,          0,     0.00,          0,     0.00,          0,     0.00,          0,     0.00,          0,     0.00
Transformer.T_2034,    0.16562,   -56.51,   0.165548,  -176.45,   0.165484,    63.53, 0.000256525,    71.33, 6.11118E-10,   120.51,    10.9882,   123.49,    10.9834,     3.55,    10.9792,  -116.47,  0.0170194,  -108.67, 4.04809E-8,   120.15,          0,     0.00,          0,     0.00,          0,     0.00,          0,     0.00,          0,     0.00
Transformer.T_2035,    0.17196,   -50.62,   0.171885,  -170.56,   0.171818,    69.42, 0.000266115,    77.07, 1.01261E-9,   119.59,    11.4088,   129.38,    11.4039,     9.44,    11.3994,  -110.58,  0.0176557,  -102.93, 6.71716E-8,   119.36,          0,     0.00,          0,     0.00,          0,     0.00,          0,     0.00,          0,     0.00
Transformer.T_2037,   0.170778,   -48.89,   0.170703,  -168.82,   0.170635,    71.16, 0.000264568,    78.65, 6.02544E-10,   118.19,    11.3304,   131.12,    11.3255,    11.18,     11.321,  -108.84,  0.0175531,  -101.35, 3.99531E-8,   117.81,          0,     0.00,          0,     0.00,          0,     0.00,          0,     0.00,          0,     0.00
Transformer.T_2040,    3.52671,   -47.52,    3.52517,  -167.46,    3.52361,    72.52, 0.00551402,    78.94, 3.90442E-9,   112.18,    233.984,   132.48,    233.881,    12.54,    233.778,  -107.48,   0.365834,  -101.06, 2.64226E-7,   110.60,          0,     0.00,          0,     0.00,          0,     0.00,          0,     0.00,          0,     0.00
Transformer.T_2041,  0.0805093,   -42.16,  0.0804746,  -162.10,  0.0804396,    77.88, 0.000124587,    84.65, 5.8567E-10,   112.18,    5.34146,   137.84,    5.33916,    17.90,    5.33683,  -102.12, 0.00826586,   -95.35, 3.88717E-8,   111.99,          0,     0.00,          0,     0.00,          0,     0.00,          0,     0.00,          0,     0.00
Transformer.T_2042,   0.193025,   -56.52,   0.192942,  -176.46,   0.192857,    63.52, 0.000298951,    70.28, 9.7204E-10,   111.98,    12.8064,   123.48,    12.8009,     3.54,    12.7953,  -116.48,  0.0198343,  -109.72, 6.44839E-8,   111.72,          0,     0.00,          0,     0.00,          0,     0.00,          0,     0.00,          0,     0.00
Transformer.T_2043,   0.276207,   -44.79,   0.276089,  -164.73,   0.275965,    75.25, 0.000428848,    81.87, 9.54228E-10,   111.06,    18.3252,   135.21,    18.3174,    15.27,    18.3092,  -104.75,  0.0284524,   -98.13, 6.33898E-8,   110.69,          0,     0.00,          0,     0.00,          0,     0.00,          0,     0.00,          0,     0.00
Transformer.T_2045,   0.276926,  -164.74,   0.276926,    15.26,          0,     0.00,          0,     0.00, 9.59238E-7,   119.40,    9.19358,    15.26,    9.19359,  -164.74,          0,     0.00,          0,     0.00, 0.0000635143,   119.33,    9.19361,    15.26,    9.19358,  -164.74,          0,     0.00,          0,     0.00, 0.000127029,   -60.67
Transformer.T_2046,   0.888487,  -173.77,   0.888486,     6.23,          0,     0.00,          0,     0.00, 3.19742E-6,   119.40,    29.4965,     6.23,    29.4966,  -173.77,          0,     0.00,          0,     0.00, 0.000211794,   119.31,    29.4967,     6.23,    29.4965,  -173.77,          0,     0.00,          0,     0.00, 0.000423587,   -60.69
Transformer.T_2047,    0.70102,  -164.76,   0.701019,    15.24,          0,     0.00,          0,     0.00, 3.19743E-6,   119.40,    23.2729,    15.24,    23.2729,  -164.76,          0,     0.00,          0,     0.00, 0.000211951,   119.31,     23.273,    15.24,    23.2729,  -164.76,          0,     0.00,          0,     0.00, 0.000423902,   -60.69
Transformer.T_2048,   0.510146,  -175.15,   0.510145,     4.85,          0,     0.00,          0,     0.00, 3.19741E-6,   119.40,     16.936,     4.85,    16.9361,  -175.15,          0,     0.00,          0,     0.00, 0.000212004,   119.35,    16.9362,     4.85,     16.936,  -175.15,          0,     0.00,          0,     0.00, 0.000424008,   -60.65
Transformer.T_2049,   0.464096,    69.37,   0.464096,  -110.63,          0,     0.00,          0,     0.00, 2.39927E-6,    -0.61,    15.4073,  -110.63,    15.4074,    69.37,          0,     0.00,          0,     0.00, 0.000159042,    -0.68,    15.4074,  -110.63,    15.4073,    69.37,          0,     0.00,          0,     0.00, 0.000318084,   179.32
Transformer.T_2050,   0.466566,    81.19,   0.466566,   -98.81,          0,     0.00,          0,     0.00, 2.39924E-6,    -0.61,    15.4894,   -98.81,    15.4894,    81.19,          0,     0.00,          0,     0.00, 0.000159083,    -0.70,    15.4894,   -98.81,    15.4894,    81.19,          0,     0.00,          0,     0.00, 0.000318166,   179.30
Transformer.T_2051,   0.775364,    66.21,   0.775363,  -113.79,          0,     0.00,          0,     0.00, 2.39921E-6,    -0.61,     25.741,  -113.79,    25.7411,    66.21,          0,     0.00,          0,     0.00, 0.000158845,    -0.72,    25.7411,  -113.79,     25.741,    66.21,          0,     0.00,          0,     0.00, 0.00031769,   179.28
